! Created Thu May  9 23:40:26 2024
# hz S ma R 50
! 2 Port Network Data from SP1.SP block
! freq  magS11  angS11  magS21  angS21  magS12  angS12  magS22  angS22  
!     
3e+09       0.197366076         145.631208        0.977732425        -92.7460549        0.977732425        -92.7460549        0.196820496        -151.297905
3.025e+09       0.196881665         144.567064        0.977810332        -93.5416138        0.977810332        -93.5416138        0.196329369        -151.818339
3.05e+09       0.196345241         143.501143        0.977898245         -94.338411        0.977898245         -94.338411        0.195786287        -152.339274
3.075e+09       0.195756309         142.433402        0.977996171        -95.1364815        0.977996171        -95.1364815        0.195190757        -152.860728
3.1e+09       0.195114368         141.363798        0.978104109        -95.9358604        0.978104109        -95.9358604        0.194542281        -153.382721
3.125e+09        0.19441891         140.292285        0.978222048        -96.7365834        0.978222048        -96.7365834        0.193840352        -153.905271
3.15e+09       0.193669421          139.21882        0.978349969        -97.5386867        0.978349969        -97.5386867        0.193084457        -154.428398
3.175e+09       0.192865378         138.143355        0.978487843        -98.3422069        0.978487843        -98.3422069        0.192274079        -154.952117
3.2e+09       0.192006253         137.065844        0.978635629        -99.1471811        0.978635629        -99.1471811         0.19140869        -155.476446
3.225e+09       0.191091512         135.986239        0.978793279        -99.9536468        0.978793279        -99.9536468        0.190487759        -156.001402
3.25e+09       0.190120611          134.90449        0.978960733        -100.761642        0.978960733        -100.761642        0.189510744        -156.526998
3.275e+09       0.189093001         133.820547         0.97913792        -101.571205         0.97913792        -101.571205        0.188477098         -157.05325
3.3e+09       0.188008126          132.73436        0.979324759        -102.382375        0.979324759        -102.382375        0.187386267        -157.580171
3.325e+09        0.18686542         131.645876        0.979521156        -103.195191        0.979521156        -103.195191        0.186237689        -158.107771
3.35e+09       0.185664313          130.55504        0.979727008        -104.009692        0.979727008        -104.009692        0.185030794        -158.636063
3.375e+09       0.184404226         129.461798        0.979942196         -104.82592        0.979942196         -104.82592        0.183765006        -159.165054
3.4e+09       0.183084572         128.366094        0.980166592        -105.643914        0.980166592        -105.643914        0.182439741        -159.694752
3.425e+09       0.181704756          127.26787        0.980400054        -106.463717        0.980400054        -106.463717        0.181054407        -160.225162
3.45e+09       0.180264179         126.167066        0.980642426        -107.285368        0.980642426        -107.285368        0.179608406        -160.756287
3.475e+09        0.17876223         125.063621         0.98089354        -108.108911         0.98089354        -108.108911         0.17810113        -161.288128
3.5e+09       0.177198293         123.957472        0.981153214        -108.934387        0.981153214        -108.934387        0.176531966        -161.820681
3.525e+09       0.175571744         122.848554         0.98142125        -109.761839         0.98142125        -109.761839        0.174900292        -162.353943
3.55e+09       0.173881953         121.736801        0.981697436        -110.591311        0.981697436        -110.591311         0.17320548        -162.887904
3.575e+09        0.17212828         120.622144        0.981981546        -111.422846        0.981981546        -111.422846        0.171446894        -163.422552
3.6e+09       0.170310079         119.504509        0.982273337        -112.256488        0.982273337        -112.256488        0.169623891         -163.95787
3.625e+09       0.168426697         118.383825         0.98257255        -113.092281         0.98257255        -113.092281        0.167735822        -164.493836
3.65e+09       0.166477474         117.260012        0.982878911        -113.930271        0.982878911        -113.930271        0.165782028        -165.030423
3.675e+09       0.164461744         116.132991        0.983192126        -114.770502        0.983192126        -114.770502        0.163761846        -165.567598
3.7e+09       0.162378831         115.002678        0.983511887        -115.613019        0.983511887        -115.613019        0.161674606        -166.105321
3.725e+09       0.160228055         113.868985        0.983837865         -116.45787        0.983837865         -116.45787        0.159519632        -166.643544
3.75e+09        0.15800873          112.73182        0.984169714        -117.305099        0.984169714        -117.305099         0.15729624         -167.18221
3.775e+09       0.155720163         111.591085         0.98450707        -118.154753         0.98450707        -118.154753        0.155003743        -167.721254
3.8e+09       0.153361655         110.446679        0.984849546         -119.00688        0.984849546         -119.00688        0.152641447        -168.260597
3.825e+09       0.150932502         109.298493        0.985196739        -119.861526        0.985196739        -119.861526        0.150208652        -168.800148
3.85e+09       0.148431994         108.146412        0.985548222         -120.71874        0.985548222         -120.71874        0.147704655        -169.339803
3.875e+09       0.145859416         106.990312        0.985903549        -121.578567        0.985903549        -121.578567        0.145128747        -169.879439
3.9e+09        0.14321405         105.830063        0.986262251        -122.441058        0.986262251        -122.441058        0.142480217        -170.418916
3.925e+09       0.140495172         104.665522        0.986623836        -123.306259        0.986623836        -123.306259         0.13975835         -170.95807
3.95e+09       0.137702057         103.496536        0.986987792         -124.17422        0.986987792         -124.17422        0.136962428        -171.496713
3.975e+09       0.134833974         102.322938        0.987353581        -125.044989        0.987353581        -125.044989        0.134091731        -172.034626
4e+09       0.131890192         101.144547        0.987720641        -125.918614        0.987720641        -125.918614        0.131145538        -172.571556
4.025e+09       0.128869976         99.9611622        0.988088385        -126.795146        0.988088385        -126.795146        0.128123128        -173.107209
4.05e+09       0.125772591         98.7725634        0.988456201        -127.674633        0.988456201        -127.674633        0.125023779        -173.641246
4.075e+09       0.122597302         97.5785049        0.988823453        -128.557124        0.988823453        -128.557124        0.121846772        -174.173269
4.1e+09       0.119343374         96.3787119        0.989189475        -129.442669        0.989189475        -129.442669        0.118591391        -174.702815
4.125e+09       0.116010071         95.1728749        0.989553576        -130.331317        0.989553576        -130.331317        0.115256922        -175.229341
4.15e+09       0.112596663         93.9606423        0.989915037        -131.223118        0.989915037        -131.223118         0.11184266        -175.752208
4.175e+09       0.109102419          92.741612        0.990273109        -132.118121        0.990273109        -132.118121        0.108347903        -176.270662
4.2e+09       0.105526616         91.5153205        0.990627016        -133.016375        0.990627016        -133.016375        0.104771962        -176.783806
4.225e+09       0.101868533         90.2812282         0.99097595         -133.91793         0.99097595         -133.91793        0.101114158        -177.290571
4.25e+09      0.0981274583         89.0387019        0.991319076        -134.822835        0.991319076        -134.822835        0.097373829         -177.78967
4.275e+09      0.0943026879         87.7869909        0.991655525         -135.73114        0.991655525         -135.73114       0.0935503285        -178.279548
4.3e+09      0.0903935277         86.5251957        0.991984397        -136.642892        0.991984397        -136.642892       0.0896430348        -178.758305
4.325e+09       0.086399296         85.2522267        0.992304762        -137.558141        0.992304762        -137.558141       0.0856513545        -179.223605
4.35e+09      0.0823193256         83.9667476        0.992615656        -138.476934        0.992615656        -138.476934       0.0815747301        -179.672541
4.375e+09      0.0781529669         82.6670978        0.992916081        -139.399321        0.992916081        -139.399321       0.0774126498         179.898545
4.4e+09      0.0738995918         81.3511828        0.993205008        -140.325348        0.993205008        -140.325348       0.0731646607         179.494311
4.425e+09      0.0695585978         80.0163186        0.993481371        -141.255063        0.993481371        -141.255063       0.0688303874         179.120784
4.45e+09      0.0651294148         78.6590015        0.993744072        -142.188513        0.993744072        -142.188513       0.0644095583         178.785887
4.475e+09      0.0606115138         77.2745642        0.993991976        -143.125742        0.993991976        -143.125742        0.059902045         178.500249
4.5e+09      0.0560044196         75.8566396        0.994223913        -144.066798        0.994223913        -144.066798       0.0553079225         178.278444
4.525e+09      0.0513077309         74.3963011         0.99443868        -145.011725         0.99443868        -145.011725       0.0506275656         178.141005
4.55e+09      0.0465211519          72.880622        0.994635035        -145.960567        0.994635035        -145.960567       0.0458618092         178.117778
4.575e+09      0.0416445474         71.2901393          0.9948117        -146.913367          0.9948117        -146.913367       0.0410122302         178.253842
4.6e+09      0.0366780448         69.5941111        0.994967362        -147.870167        0.994967362        -147.870167       0.0360816745         178.620543
4.625e+09      0.0316222365         67.7409541        0.995100672        -148.831009        0.995100672        -148.831009       0.0310753191         179.337662
4.65e+09      0.0264786295         65.6369943        0.995210242        -149.795934        0.995210242        -149.795934       0.0260030292        -179.377798
4.675e+09      0.0212507828         63.0926956        0.995294649        -150.764981        0.995294649        -150.764981       0.0208852882        -177.090629
4.7e+09      0.0159477816         59.6589823        0.995352433        -151.738186        0.995352433        -151.738186       0.0157709129        -172.795915
4.725e+09      0.0105984885         53.9630388        0.995382099        -152.715589        0.995382099        -152.715589       0.0108046311        -163.662416
4.75e+09     0.00535309124         39.1651127        0.995382115        -153.697223        0.995382115        -153.697223      0.00658198526        -139.796979
4.775e+09     0.00254031122        -44.9527046        0.995350912        -154.683123        0.995350912        -154.683123      0.00562216634        -86.1820336
4.8e+09     0.00699463504        -96.7851146        0.995286888         -155.67332        0.995286888         -155.67332      0.00920890957        -50.7003766
4.825e+09      0.0126229356        -107.164579        0.995188405        -156.667846        0.995188405        -156.667846       0.0143588712        -37.8079319
4.85e+09       0.018466802        -111.946108         0.99505379         -157.66673         0.99505379         -157.66673        0.019976444        -32.1878328
4.875e+09      0.0244410515        -115.074746        0.994881339        -158.669999        0.994881339        -158.669999       0.0258231673        -29.3257145
4.9e+09      0.0305255271        -117.503143        0.994669314        -159.677677        0.994669314        -159.677677       0.0318269406        -27.7606622
4.925e+09      0.0367130195        -119.572354        0.994415945        -160.689787        0.994415945        -160.689787       0.0379593057        -26.9023486
4.95e+09      0.0430002534        -121.434249        0.994119434        -161.706352        0.994119434        -161.706352       0.0442068382        -26.4704818
4.975e+09      0.0493854496        -123.166612        0.993777951        -162.727388        0.993777951        -162.727388       0.0505623338        -26.3157698
5e+09      0.0558674744         -124.81338        0.993389641        -163.752912        0.993389641        -163.752912       0.0570215062        -26.3516528
5.025e+09      0.0624454876        -126.401237        0.992952623        -164.782938        0.992952623        -164.782938       0.0635815621        -26.5245751
5.05e+09       0.069118778        -127.947322        0.992464989        -165.817477        0.992464989        -165.817477        0.070240518        -26.7996595
5.075e+09      0.0758866783        -129.463146        0.991924812        -166.856537        0.991924812        -166.856537       0.0769968432        -27.1532324
5.1e+09      0.0827485177        -130.956721        0.991330142        -167.900123        0.991330142        -167.900123       0.0838492612        -27.5686664
5.125e+09       0.089703593        -132.433797        0.990679014        -168.948238        0.990679014        -168.948238       0.0907966322        -28.0339428
5.15e+09      0.0967511507        -133.898605        0.989969445        -170.000882        0.989969445        -170.000882       0.0978378802        -28.5401591
5.175e+09       0.103890374        -135.354325        0.989199439        -171.058049        0.989199439        -171.058049        0.104971946        -29.0805802
5.2e+09       0.111120374         -136.80339        0.988366992        -172.119733        0.988366992        -172.119733        0.112197755        -29.6500152
5.225e+09       0.118440183        -138.247693        0.987470091        -173.185923        0.987470091        -173.185923        0.119514196        -30.2443977
5.25e+09        0.12584875        -139.688724        0.986506719        -174.256606        0.986506719        -174.256606        0.126920102        -30.8604949
5.275e+09       0.133344932        -141.127673        0.985474858        -175.331763        0.985474858        -175.331763        0.134414244        -31.4957027
5.3e+09       0.140927498        -142.565493        0.984372493        -176.411372        0.984372493        -176.411372        0.141995315        -32.1478975
5.325e+09       0.148595118        -144.002961        0.983197615        -177.495408        0.983197615        -177.495408         0.14966193        -32.8153282
5.35e+09       0.156346366        -145.440708        0.981948227        -178.583842        0.981948227        -178.583842        0.157412614        -33.4965357
5.375e+09       0.164179712        -146.879253        0.980622343         -179.67664        0.980622343         -179.67664          0.1652458         -34.190292
5.4e+09       0.172093528        -148.319021        0.979217996         179.226236        0.979217996         179.226236        0.173159827         -34.895554
5.425e+09       0.180086078        -149.760361        0.977733245         178.124828        0.977733245         178.124828        0.181152934        -35.6114272
5.45e+09       0.188155522        -151.203561        0.976166171         177.019181        0.976166171         177.019181        0.189223259        -36.3371382
5.475e+09       0.196299912        -152.648857        0.974514889         175.909348        0.974514889         175.909348        0.197368838        -37.0720121
5.5e+09       0.204517192        -154.096439        0.972777552         174.795382        0.972777552         174.795382        0.205587602        -37.8154554
5.525e+09         0.2128052         -155.54646        0.970952352         173.677344        0.970952352         173.677344        0.213877376        -38.5669411
5.55e+09       0.221161663        -156.999041        0.969037527         172.555298        0.969037527         172.555298        0.222235878        -39.3259981
5.575e+09       0.229584202        -158.454275        0.967031366         171.429313        0.967031366         171.429313        0.230660722        -40.0922013
5.6e+09       0.238070329         -159.91223        0.964932216         170.299462        0.964932216         170.299462        0.239149415        -40.8651642
5.625e+09        0.24661745        -161.372952        0.962738483         169.165824        0.962738483         169.165824        0.247699358        -41.6445324
5.65e+09       0.255222864        -162.836468        0.960448641         168.028482        0.960448641         168.028482        0.256307847        -42.4299786
5.675e+09       0.263883767        -164.302788        0.958061234         166.887524        0.958061234         166.887524        0.264972077         -43.221198
5.7e+09       0.272597253        -165.771907        0.955574883         165.743042        0.955574883         165.743042         0.27368914        -44.0179051
5.725e+09       0.281360316        -167.243803        0.952988292         164.595133        0.952988292         164.595133        0.282456029        -44.8198299
5.75e+09       0.290169852        -168.718444        0.950300251           163.4439        0.950300251           163.4439        0.291269641        -45.6267161
5.775e+09       0.299022663        -170.195786        0.947509639         162.289448        0.947509639         162.289448         0.30012678        -46.4383181
5.8e+09       0.307915462        -171.675772        0.944615435         161.131888        0.944615435         161.131888        0.309024158        -47.2544001
5.825e+09       0.316844875        -173.158336        0.941616717         159.971337        0.941616717         159.971337        0.317958402        -48.0747335
5.85e+09       0.325807442        -174.643404        0.938512668         158.807913        0.938512668         158.807913        0.326926057        -48.8990966
5.875e+09        0.33479963        -176.130891        0.935302582         157.641741        0.935302582         157.641741        0.335923589        -49.7272726
5.9e+09       0.343817829        -177.620706        0.931985866          156.47295        0.931985866          156.47295        0.344947394        -50.5590492
5.925e+09       0.352858365        -179.112748        0.928562044         155.301672        0.928562044         155.301672        0.353993797        -51.3942176
5.95e+09         0.3619175         179.393088        0.925030762         154.128043        0.925030762         154.128043        0.363059064        -52.2325718
5.975e+09       0.370991439         177.896917        0.921391789         152.952204        0.921391789         152.952204        0.372139403        -53.0739081
6e+09       0.380076339         176.398858        0.917645023         151.774299        0.917645023         151.774299        0.381230976        -53.9180247
6.025e+09       0.389168314         174.899035        0.913790488         150.594474        0.913790488         150.594474        0.390329897        -54.7647214
6.05e+09       0.398263441         173.397579        0.909828344         149.412881        0.909828344         149.412881        0.399432248        -55.6137987
